Iteration No,Io,gain_db,gain_fo,gain_lower,gain_upper,freq_lower,freq_upper,iip3_dbm,s11_db,s12_db,s21_db,s22_db,Kf,nf_db,p_source,gm1,vdsat,vg,vd,vs,
1,0.0009181843,12.28355,12.28355,12.2834,11.90972,1000000.0,2000000000.0,31.232414579886324,-0.0127354,-92.3567,-112.686,-6.71214e-07,4.999396619818072,28.76646,0.003641314,0.01696159,0.0592005,0.5695275,0.691261,0.2010399,
2,0.0009614007,12.47466,12.47466,12.34162,12.10777,1000000.0,2000000000.0,30.24289775301456,-0.0210425,-90.0785,-110.324,-6.570109999999999e-07,4.789506893686139,26.49407,0.003835845,0.017688,0.05961894,0.579511,0.6764091,0.2066221,
3,0.001005585,12.64585,12.64585,12.29594,12.29001,1000000.0,2000000000.0,29.610742676356935,-0.0346945,-87.8289,-107.987,-6.42304e-07,4.599572933032948,24.23866,0.004034438,0.01842692,0.06003152,0.5893444,0.6619171,0.2121498,
4,0.001050801,12.79957,12.79957,12.11128,12.4534,1000000.0,2000000000.0,29.45894549530429,-0.0568734,-85.6242,-105.698,-6.270899999999999e-07,4.427998351897717,22.01911,0.004241897,0.01918226,0.06051375,0.5997515,0.6475552,0.218025,
5,0.001095431,12.92673,12.92673,11.72706,12.58898,1000000.0,2000000000.0,29.017149347463203,-0.0927716,-83.4716,-103.454,-6.11781e-07,4.276646330774668,19.83625,0.004444244,0.0199247,0.06088477,0.6088308,0.6342276,0.2232007,
6,0.001140651,13.03734,13.03734,11.10881,12.7114,1000000.0,2000000000.0,25.98468861446976,-0.149591,-81.393,-101.282,-5.96942e-07,4.139522975260974,17.72088,0.004648779,0.02067273,0.06125099,0.6177379,0.6215014,0.2283099,
7,0.001186124,13.12899,13.12899,10.22961,12.81208,1000000.0,2000000000.0,22.100336498562925,-0.237903,-79.4063,-99.1982,-5.82736e-07,4.014879119361463,15.69128,0.004855607,0.02142032,0.06161242,0.6266151,0.6093873,0.2334677,
8,0.001229297,12.088027,13.20314,9.088027,12.89732,1000000.0,2000000000.0,18.853661339943784,-0.372527,-77.5242,-97.2255,-5.708999999999999e-07,3.9097760896637768,13.76889,0.005052549,0.02213682,0.06190153,0.6341481,0.5986337,0.2378739,
9,0.00127153,10.757655,13.26726,7.757655,12.97043,1000000.0,2000000000.0,16.107670328632338,-0.567084,-75.8024,-95.4224,-5.61685e-07,3.8177378391752628,12.01627,0.005245412,0.02284326,0.06222184,0.6414035,0.5887882,0.2421047,
10,0.001312488,9.298098,13.313,6.298098,13.024,1000000.0,2000000000.0,13.759702555625822,-0.836135,-74.2665,-93.7984,-5.554929999999999e-07,3.734292896580935,10.45884,0.005432676,0.02351647,0.0624896,0.6483347,0.5798122,0.2462358,
11,0.001343058,8.779342,13.48302,5.779342,13.19119,1000000.0,2000000000.0,10.809213581321501,-1.0023,-73.3163,-92.6089,-5.58654e-07,3.5003051798318436,9.653349,0.005604536,0.02399601,0.06290145,0.659082,0.5499968,0.2516058,
12,0.001366189,8.272106,13.59625,5.272106,13.30094,1000000.0,2000000000.0,8.3949200531505,-1.17286,-72.5212,-91.5683,-5.611929999999999e-07,3.3048929544572756,8.972991,0.005741144,0.02437669,0.06322885,0.6678189,0.5229686,0.2558792,
13,0.001381938,7.812474,13.64871,4.812474,13.35064,1000000.0,2000000000.0,6.3281192568033475,-1.33362,-71.8964,-90.6857,-5.63148e-07,3.144037432423317,8.431131,0.005841951,0.02461762,0.06349513,0.6747298,0.4993028,0.2590473,
14,0.001388049,7.364222,13.66675,4.364222,13.36788,1000000.0,2000000000.0,4.667335780788463,-1.49296,-71.3765,-89.9433,-5.663929999999999e-07,3.024998761195295,7.978976,0.005894857,0.02472562,0.06359332,0.678526,0.4809492,0.2605793,
15,0.001389199,6.943892,13.66725,3.943892,13.36473,1000000.0,2000000000.0,3.285971157850099,-1.64868,-70.937,-89.309,-5.699639999999999e-07,2.930830955548973,7.595419,0.005915879,0.02476384,0.06360745,0.680504,0.4662129,0.2611492,
16,0.00137958,6.541855,13.68143,3.541855,13.37371,1000000.0,2000000000.0,2.481210560082687,-1.80587,-70.5435,-88.8307,-5.77613e-07,2.885470515187056,7.275806,0.005885919,0.02467287,0.06338537,0.6787623,0.4582414,0.259899,
17,0.001371202,6.192330999999999,13.6836,3.192331,13.36848,1000000.0,2000000000.0,1.6174272527718472,-1.95044,-70.2093,-88.3818,-5.83249e-07,2.8305103838398944,7.000496,0.00585923,0.02460862,0.06312981,0.677646,0.4494135,0.259188,
18,0.001359325,5.8763380000000005,13.6954,2.876338,13.3738,1000000.0,2000000000.0,1.0030746749439743,-2.09067,-69.9049,-88.0099,-5.90757e-07,2.7940134650739763,6.765701,0.005812989,0.02449554,0.06281959,0.6754271,0.4432672,0.2579509,
19,0.001345385,5.596795999999999,13.7186,2.596796,13.38725,1000000.0,2000000000.0,0.5576861835293698,-2.22408,-69.6274,-87.7033,-5.99087e-07,2.769470371950625,6.563803,0.005755046,0.02436181,0.06250202,0.6726728,0.438811,0.2564884,
20,0.001330169,5.346333,13.73404,2.346333,13.39352,1000000.0,2000000000.0,0.22888852292916795,-2.34747,-69.3854,-87.4362,-6.07771e-07,2.75111960177559,6.395368,0.005690596,0.02417826,0.06216187,0.6697725,0.4354053,0.2549578,
21,0.001314348,5.128749,13.75733,2.128749,13.40426,1000000.0,2000000000.0,-0.024558506044968453,-2.46308,-69.1626,-87.2062,-6.162429999999999e-07,2.7360788759576327,6.246257,0.005622268,0.02400578,0.0617828,0.6666379,0.4326655,0.2534665,
22,0.001298219,4.983499,13.7812,1.983499,13.41817,1000000.0,2000000000.0,-0.220142415752548,-2.55042,-68.9828,-87.0246,-6.24541e-07,2.723723167977827,6.138383,0.005552326,0.02381892,0.06142885,0.6636476,0.4303372,0.2520581,
23,0.001282056,4.8607689999999995,13.80871,1.860769,13.43328,1000000.0,2000000000.0,-0.3885685854483114,-2.63088,-68.8154,-86.8657,-6.32692e-07,2.71367797679481,6.042394,0.005481956,0.02363336,0.06111147,0.6608084,0.4283143,0.2507407,
24,0.001265867,4.753016,13.82503,1.753016,13.43859,1000000.0,2000000000.0,-0.529181890454197,-2.70328,-68.668,-86.7159,-6.40695e-07,2.704343737640471,5.961176,0.005411794,0.0234179,0.06079436,0.6581526,0.4265349,0.2495018,
25,0.001249839,4.663803,13.84573,1.663803,13.44507,1000000.0,2000000000.0,-0.6468980179780317,-2.76948,-68.53,-86.5832,-6.48145e-07,2.695500040483145,5.886776,0.005341845,0.02322017,0.06045745,0.6554454,0.4249539,0.2483561,
26,0.001233967,4.5430209999999995,13.86619,1.543021,13.45443,1000000.0,2000000000.0,-0.7751357306602529,-2.85,-68.3775,-86.4372,-6.56697e-07,2.68770391955959,5.803731,0.005272661,0.0230163,0.06014823,0.6529224,0.4235313,0.2472941,
27,0.001218284,4.439648,13.88413,1.439648,13.45757,1000000.0,2000000000.0,-0.8856065574929914,-2.9211,-68.2419,-86.3074,-6.643919999999999e-07,2.679951849025793,5.731189,0.005204301,0.02281345,0.05983762,0.6504917,0.422208,0.2463283,
28,0.00120275,4.399013,13.90217,1.399013,13.46409,1000000.0,2000000000.0,-0.9742297289349864,-2.96512,-68.1345,-86.2067,-6.7186e-07,2.6730779995718175,5.684991,0.005136692,0.02260514,0.05955297,0.6482307,0.4210091,0.2454348,
29,0.001187387,4.366037,13.91426,1.366037,13.46396,1000000.0,2000000000.0,-1.0470169105040767,-3.00438,-68.0376,-86.1121,-6.790969999999999e-07,2.6670430144687964,5.645192,0.005070026,0.02238266,0.05928728,0.6461334,0.4199675,0.2445873,
30,0.001172356,4.343377,13.92972,1.343377,13.46373,1000000.0,2000000000.0,-1.1083069476538654,-3.03967,-67.9456,-86.0282,-6.85708e-07,2.661023032728869,5.607545,0.005004471,0.02217819,0.05900713,0.6439855,0.4190104,0.2438063,
31,0.001158932,4.329393,13.94799,1.329393,13.47056,1000000.0,2000000000.0,-1.171961689496726,-3.07156,-67.854,-85.9436,-6.9257e-07,2.653640410701384,5.571816,0.004940333,0.0219929,0.05876605,0.6420724,0.4180993,0.2430926,
32,0.00113774,4.310003,13.99848,1.310003,13.49617,1000000.0,2000000000.0,-0.6748488058658211,-3.11723,-67.7458,-85.9574,-7.038789999999999e-07,2.682524796087299,5.545067,0.004845489,0.02170458,0.0583202,0.6372953,0.4226609,0.2411929,
33,0.001132649,4.312407,13.90661,1.312407,13.40827,1000000.0,2000000000.0,-2.1260795439888227,-3.11043,-67.718,-85.6433,-7.00799e-07,2.5963563595204997,5.507953,0.004842237,0.0215824,0.05844879,0.6408916,0.4079347,0.2426156,
34,0.001114705,4.304823,13.97912,1.304823,13.45905,1000000.0,2000000000.0,-1.4997874823191069,-3.15639,-67.6003,-85.6802,-7.13262e-07,2.629362648297996,5.482079,0.004749977,0.02134279,0.05804662,0.6361035,0.4135614,0.2406455,
35,0.001095436,4.24705,14.0271,1.24705,13.48131,1000000.0,2000000000.0,-0.9645900082289245,-3.21752,-67.4877,-85.6943,-7.24732e-07,2.6605847010225143,5.447358,0.004663708,0.02107485,0.05763586,0.6318047,0.4188002,0.2390999,
36,0.001083787,4.224264,14.01822,1.224264,13.46206,1000000.0,2000000000.0,-1.2354758630568767,-3.24266,-67.4185,-85.5834,-7.29941e-07,2.643505245669043,5.417914,0.004616546,0.02088614,0.05748788,0.6313823,0.4161256,0.2391318,
37,0.001077536,4.2967770000000005,13.94675,1.296777,13.39303,1000000.0,2000000000.0,-2.4158715942927103,-3.20721,-67.4137,-85.3515,-7.27496e-07,2.574666712901503,5.408864,0.004603021,0.02076267,0.05755977,0.6339866,0.4042191,0.2401851,
38,0.001058761,4.256154,14.01487,1.256154,13.43505,1000000.0,2000000000.0,-1.6690873906060943,-3.26802,-67.2936,-85.4012,-7.4138e-07,2.615975218863687,5.381806,0.004512973,0.02048867,0.05716112,0.6291129,0.411087,0.2382436,
39,0.00104984,4.266967,13.98669,1.266967,13.39693,1000000.0,2000000000.0,-2.2539542353193696,-3.27079,-67.2492,-85.2539,-7.4317e-07,2.580611202916166,5.358701,0.004477356,0.02034237,0.0570887,0.6294838,0.4051629,0.2384534,
40,0.001031151,4.284439,14.04874,1.284439,13.43072,1000000.0,2000000000.0,-1.4544815556646284,-3.30356,-67.1623,-85.335,-7.55722e-07,2.623232860058666,5.353105,0.004389436,0.02006983,0.05666239,0.6245854,0.4125648,0.2366678,
41,0.001019482,4.279945,14.05357,1.279945,13.42302,1000000.0,2000000000.0,-1.5429964726961387,-3.32316,-67.0976,-85.2684,-7.62058e-07,2.617302350616113,5.333557,0.004339555,0.0198868,0.05649875,0.6235858,0.4117816,0.2364977,
42,0.001007886,4.329343,14.05497,1.329343,13.40932,1000000.0,2000000000.0,-1.5822639200252695,-3.31992,-67.0579,-85.2247,-7.67051e-07,2.611673242556386,5.330071,0.004289612,0.01970401,0.05629197,0.6223697,0.4112315,0.2362984,
43,0.0009964188,4.32906,14.05987,1.32906,13.39576,1000000.0,2000000000.0,-1.6160838387423482,-3.33779,-67.0003,-85.1729,-7.726409999999999e-07,2.6080786829954175,5.312629,0.004240014,0.01952491,0.05611529,0.6211783,0.410881,0.2360669,
44,0.0009835752,4.452403,14.04598,1.452403,13.36922,1000000.0,2000000000.0,-2.151435159830939,-3.30318,-66.9636,-85.05,-7.77348e-07,2.5756142595309446,5.320114,0.004185442,0.01930376,0.0560255,0.6200817,0.4043416,0.2351511,
45,0.0009701084,4.440476,14.07515,1.440476,13.37782,1000000.0,2000000000.0,-1.731730852028484,-3.33512,-66.8884,-85.0654,-7.870499999999999e-07,2.596748941716033,5.302757,0.004120463,0.01908808,0.05578512,0.6183438,0.4093494,0.2350856,
46,0.0009605393,4.450518,14.10838,1.450518,13.39168,1000000.0,2000000000.0,-1.383923968845778,-3.35171,-66.8428,-85.0924,-7.93925e-07,2.6151142160645175,5.303765,0.004076275,0.01894358,0.0555608,0.6137903,0.4109139,0.2324541,
47,0.0009510404,4.504212,14.10389,1.504212,13.37066,1000000.0,2000000000.0,-1.4144515018618904,-3.34123,-66.8187,-85.067,-7.973909999999999e-07,2.6103216126899467,5.30317,0.004035246,0.01879112,0.05542243,0.6141548,0.4114569,0.2334055,
48,0.0009416704,4.555219,14.09772,1.555219,13.35145,1000000.0,2000000000.0,-1.4336090984036005,-3.33344,-66.7923,-85.0371,-8.014409999999999e-07,2.6060276447221864,5.301736,0.003994575,0.01863527,0.05527466,0.6145139,0.4121997,0.2343689,
49,0.0009330533,4.526169,14.12148,1.526169,13.36043,1000000.0,2000000000.0,-1.2823372446929326,-3.36428,-66.7323,-85.0212,-8.085610000000001e-07,2.616044039206555,5.289091,0.003956977,0.01849885,0.05513799,0.6111446,0.4123333,0.2322958,
50,0.0009246858,4.588975,14.10675,1.588975,13.33583,1000000.0,2000000000.0,-1.4521718849076208,-3.34572,-66.7156,-84.974,-8.11661e-07,2.604322177263315,5.292732,0.003923016,0.01835128,0.05505277,0.6121576,0.4114641,0.2334226,
51,0.0009159334,4.647288,14.09672,1.647288,13.31264,1000000.0,2000000000.0,-1.5246268170229769,-3.33047,-66.6978,-84.9409,-8.149119999999999e-07,2.5968107456401066,5.295822,0.003886122,0.01820502,0.05491035,0.6125456,0.4114575,0.2343465,
52,0.0009071917,4.704897,14.09079,1.704897,13.28964,1000000.0,2000000000.0,-1.5685794434504032,-3.32027,-66.6764,-84.9155,-8.182079999999999e-07,2.591797231051491,5.296483,0.003848835,0.01806094,0.05479127,0.6128853,0.4117427,0.235201,
53,0.0008985666,4.707517,14.08302,1.707517,13.26869,1000000.0,2000000000.0,-1.6199589584956158,-3.32994,-66.6372,-84.8694,-8.22751e-07,2.587033186575955,5.2842,0.003812008,0.01791355,0.05466515,0.6132195,0.4121447,0.2360526,
54,0.0008900801,4.765809,14.0753,1.765809,13.24775,1000000.0,2000000000.0,-1.6507975093363854,-3.31553,-66.6196,-84.8453,-8.26445e-07,2.5825514546685153,5.288856,0.003775714,0.01776791,0.05454232,0.6135892,0.4126112,0.2369276,
55,0.0008818384,4.823812,14.07191,1.823812,13.23343,1000000.0,2000000000.0,-1.690516740417742,-3.3021,-66.5973,-84.822,-8.307639999999999e-07,2.5787895697301537,5.293149,0.003740349,0.0176279,0.05444907,0.614111,0.4131171,0.2378456,
56,0.0008738499,4.87852,14.06278,1.87852,13.21085,1000000.0,2000000000.0,-1.7221504005684949,-3.2883,-66.5818,-84.7984,-8.340279999999999e-07,2.573857524100228,5.297106,0.003706116,0.01749205,0.05431958,0.614595,0.4136633,0.2388522,
57,0.0008666972,4.9038,14.08216,1.9038,13.20908,1000000.0,2000000000.0,-1.5605987557843974,-3.29692,-66.5511,-84.8076,-8.38826e-07,2.5829327531882624,5.300368,0.003675614,0.01737676,0.05420156,0.6111226,0.4133673,0.2366185,
58,0.0008595042,4.911725,14.06742,1.911725,13.18437,1000000.0,2000000000.0,-1.7485265342884304,-3.301,-66.5189,-84.7448,-8.424979999999999e-07,2.5719606292275854,5.290585,0.003646637,0.0172461,0.05413684,0.6119514,0.412288,0.2375134,
59,0.000851783,4.972797,14.05818,1.972797,13.16196,1000000.0,2000000000.0,-1.8137233085869227,-3.28468,-66.5052,-84.7185,-8.458659999999999e-07,2.566064857741973,5.297661,0.0036143,0.01711062,0.05403325,0.6122013,0.4121529,0.2381831,
60,0.0008440401,5.031432000000001,14.05072,2.031432,13.14068,1000000.0,2000000000.0,-1.8503025822823531,-3.27009,-66.4903,-84.6966,-8.494789999999999e-07,2.5618261771112043,5.304628,0.003581591,0.01697485,0.05392658,0.6122922,0.4122565,0.2387593,
61,0.0008364012,5.089715,14.04859,2.089715,13.12675,1000000.0,2000000000.0,-1.8858107586753334,-3.25685,-66.47,-84.6764,-8.53895e-07,2.558848267600369,5.311417,0.003549198,0.01684253,0.0538445,0.6123857,0.4124151,0.2392765,
62,0.0008288826,5.145300000000001,14.04258,2.1453,13.10768,1000000.0,2000000000.0,-1.914597288411457,-3.24408,-66.4533,-84.6559,-8.57951e-07,2.5558271775705976,5.318447,0.003517396,0.0167073,0.05375989,0.612468,0.4125762,0.2397584,
63,0.0008215161,5.199504,14.03547,2.199504,13.08544,1000000.0,2000000000.0,-1.9375578439325238,-3.2339,-66.4372,-84.6342,-8.614050000000001e-07,2.5520648172247484,5.323158,0.003486208,0.01657975,0.05364057,0.6123331,0.4126987,0.2402199,
64,0.0008142264,5.1992259999999995,14.02883,2.199226,13.06334,1000000.0,2000000000.0,-1.9684280083942696,-3.24381,-66.4033,-84.5961,-8.656269999999999e-07,2.54873668697542,5.313807,0.003455313,0.01645328,0.05352205,0.6120842,0.4128049,0.2405898,
65,0.0008069593,5.257877000000001,14.0249,2.257877,13.03955,1000000.0,2000000000.0,-1.9731342779079952,-3.23148,-66.3905,-84.586,-8.687039999999999e-07,2.5465207180934004,5.321466,0.003424419,0.01632869,0.05342641,0.6117714,0.4128905,0.2408481,
66,0.0007997408,5.314238,14.02047,2.314238,13.01975,1000000.0,2000000000.0,-1.9769625605475767,-3.21906,-66.3758,-84.5708,-8.72583e-07,2.544402054066733,5.329963,0.003393765,0.01620035,0.05332666,0.6113458,0.412943,0.2409958,
67,0.0007925522,5.3694869999999995,14.01719,2.369487,13.00052,1000000.0,2000000000.0,-1.9688964618201865,-3.20761,-66.3604,-84.5573,-8.765969999999999e-07,2.5429727806927502,5.338506,0.003363117,0.01607246,0.05322602,0.610747,0.413003,0.2410131,
68,0.000785385,5.425149,14.01979,2.425149,12.98897,1000000.0,2000000000.0,-1.95727563042891,-3.19737,-66.339,-84.5456,-8.81535e-07,2.542882527346493,5.347085,0.003332402,0.01594656,0.0531465,0.610036,0.4130618,0.2408864,
69,0.0007783092,5.478937999999999,14.01754,2.478938,12.96861,1000000.0,2000000000.0,-1.9313134679065769,-3.18709,-66.3241,-84.5346,-8.853509999999999e-07,2.541803696020146,5.355589,0.003301983,0.01582285,0.05302716,0.609025,0.4130337,0.240661,
70,0.0007712141,5.533308,14.01838,2.533308,12.94638,1000000.0,2000000000.0,-1.88758744409715,-3.18167,-66.3061,-84.5291,-8.89028e-07,2.542323680744254,5.361717,0.003271221,0.01570037,0.05292751,0.607867,0.4130532,0.2402743,
71,0.0007641204,5.532106000000001,14.01954,2.532106,12.93006,1000000.0,2000000000.0,-1.85941239235067,-3.19516,-66.2668,-84.5005,-8.946369999999999e-07,2.543353001401219,5.354508,0.003240479,0.0155717,0.05283789,0.6066663,0.4130637,0.2397695,
72,0.0007570958,5.58967,14.0203,2.58967,12.9121,1000000.0,2000000000.0,-1.8113554897949413,-3.18497,-66.2505,-84.494,-8.99088e-07,2.543982774627617,5.364963,0.003209942,0.01544576,0.05273601,0.6053306,0.4130057,0.2392135,
73,0.0007501691,5.646261,14.02115,2.646261,12.89398,1000000.0,2000000000.0,-1.7621131766626519,-3.17529,-66.2342,-84.4877,-9.03542e-07,2.54470306964961,5.375308,0.003179786,0.01532131,0.05263549,0.6039469,0.4129206,0.2386146,
74,0.0007433729,5.701979,14.02167,2.701979,12.87546,1000000.0,2000000000.0,-1.7166920527269838,-3.1659,-66.2182,-84.4809,-9.079370000000001e-07,2.545238552652032,5.385531,0.003150213,0.01519889,0.05253727,0.602566,0.4127836,0.2380068,
75,0.0007367127,5.757937,14.02646,2.757937,12.86389,1000000.0,2000000000.0,-1.6837977752018745,-3.15692,-66.1974,-84.4735,-9.131009999999999e-07,2.54626933599148,5.39563,0.003121278,0.0150801,0.05246247,0.6012856,0.4126097,0.2374067,
76,0.000730273,5.811774,14.02468,2.811774,12.84201,1000000.0,2000000000.0,-1.6512087074907669,-3.14751,-66.1844,-84.4653,-9.167809999999998e-07,2.54544245229401,5.405319,0.003093308,0.01496581,0.05235188,0.5999025,0.412314,0.2368531,
77,0.000724923,5.867895,14.02453,2.867895,12.81055,1000000.0,2000000000.0,-1.6032538564790286,-3.13833,-66.1795,-84.4651,-9.167879999999999e-07,2.5403756989732464,5.409787,0.003066138,0.01489172,0.0521574,0.597983,0.4119201,0.2363629,
78,0.0007140092,5.9136109999999995,14.05815,2.913611,12.80277,1000000.0,2000000000.0,-0.9937814416939261,-3.15326,-66.1372,-84.5329,-9.276809999999999e-07,2.5715814027832806,5.424412,0.003016248,0.01469791,0.05195903,0.5915512,0.4150809,0.2324995,
79,0.0007102195,5.91998,14.03628,2.91998,12.76747,1000000.0,2000000000.0,-1.35295168819912,-3.15445,-66.1211,-84.4601,-9.276910000000001e-07,2.5520228570641823,5.416017,0.003003191,0.01462803,0.05194262,0.5926317,0.41169,0.2332668,
80,0.0007058381,5.977161000000001,14.02003,2.977161,12.74103,1000000.0,2000000000.0,-1.562199467856317,-3.13643,-66.1201,-84.4221,-9.2902e-07,2.5397274065116786,5.425663,0.002986409,0.01454469,0.05190582,0.5932262,0.4097695,0.2338175,
81,0.0007010952,6.028717,14.00834,3.028717,12.71688,1000000.0,2000000000.0,-1.6708376020828624,-3.12263,-66.1156,-84.398,-9.311749999999999e-07,2.5326254454729424,5.434696,0.002967235,0.01445563,0.05185504,0.5934187,0.4088312,0.2341911,
82,0.000696106,6.076912,14.00004,3.076912,12.69433,1000000.0,2000000000.0,-1.7114805820599344,-3.11173,-66.1086,-84.3832,-9.33918e-07,2.5290016264955257,5.443426,0.002946424,0.01436265,0.05179467,0.5932892,0.4084982,0.2344028,
83,0.0006909351,6.124222,13.99912,3.124222,12.68049,1000000.0,2000000000.0,-1.7133103836147114,-3.1029,-66.0943,-84.3744,-9.38006e-07,2.528440899594662,5.452087,0.00292443,0.01426803,0.05174678,0.5929521,0.4085386,0.2344534,
84,0.0006856986,6.1692800000000005,13.99529,3.16928,12.66085,1000000.0,2000000000.0,-1.6879513341608288,-3.09525,-66.0832,-84.3682,-9.416639999999999e-07,2.5284789608746028,5.460725,0.002902006,0.01416994,0.05168518,0.592419,0.4087019,0.2343893,
85,0.0006804377,6.213655,13.99059,3.213655,12.63692,1000000.0,2000000000.0,-1.639228995482739,-3.0882,-66.075,-84.3658,-9.4463e-07,2.5286003127973102,5.469158,0.002879206,0.01407486,0.0515932,0.5915514,0.4089167,0.2342235,
86,0.0006750899,6.257527,13.98715,3.257527,12.61313,1000000.0,2000000000.0,-1.569283955617422,-3.08215,-66.0658,-84.3661,-9.47803e-07,2.529717035336621,5.47768,0.002855817,0.01397821,0.0514983,0.5904759,0.4092309,0.2339192,
