Iteration No,Io,gain_db,gain_fo,gain_lower,gain_upper,freq_lower,freq_upper,iip3_dbm,s11_db,s12_db,s21_db,s22_db,Kf,nf_db,p_source,gm1,vdsat,vg,vd,vs,
1,0.0009153482,9.160512,12.53966,6.160512,12.14113,1000000.0,2000000000.0,14.508577285001905,-0.853394,-74.1481,-94.4051,-7.00157e-07,4.755368935744496,10.86638,0.003649046,0.01691084,0.05929676,0.5745508,0.6731267,0.2035406,
2,0.0009515789,8.831861,12.93915,5.831861,12.52577,1000000.0,2000000000.0,16.724321455896174,-1.0324,-72.9789,-93.0736,-7.098909999999999e-07,4.356755428144486,9.962158,0.003834949,0.01752072,0.059866,0.5894475,0.6394048,0.2114056,
3,0.0009848353,8.476481,13.25748,5.476481,12.83139,1000000.0,2000000000.0,16.241483663171692,-1.22248,-71.9666,-91.8645,-7.174629999999999e-07,4.014462688255183,9.179299,0.004014106,0.01806366,0.06040739,0.6046427,0.605181,0.2195303,
4,0.001012735,8.128946,13.50236,5.128946,13.06985,1000000.0,2000000000.0,11.979066259216026,-1.41051,-71.1229,-90.8089,-7.242209999999999e-07,3.731807354185903,8.533214,0.004167378,0.0185144,0.06090096,0.617983,0.5724699,0.2264578,
5,0.001036383,7.833404,13.67011,4.833404,13.23323,1000000.0,2000000000.0,8.918103815324557,-1.57712,-70.4651,-89.903,-7.280719999999999e-07,3.4886468749351884,8.028863,0.004303575,0.0188828,0.0613157,0.6305204,0.5411566,0.2330364,
6,0.001053018,7.545788,13.78338,4.545788,13.34197,1000000.0,2000000000.0,6.595491766811833,-1.73443,-69.9254,-89.1256,-7.311899999999999e-07,3.2939437697588008,7.612687,0.004407604,0.01916004,0.06168845,0.6404719,0.5133028,0.2380726,
7,0.001064349,7.257988,13.82962,4.257988,13.38743,1000000.0,2000000000.0,4.630713121431427,-1.87851,-69.5023,-88.4419,-7.32907e-07,3.1327601707564106,7.27417,0.004484923,0.01932925,0.06193127,0.648405,0.4890752,0.2420062,
8,0.00107097,6.98166,13.84574,3.98166,13.40215,1000000.0,2000000000.0,2.917475140554842,-2.01061,-69.1582,-87.855,-7.338099999999999e-07,3.0009794114262185,6.991383,0.00453866,0.01944875,0.06213185,0.6546142,0.4684819,0.2450795,
9,0.001071215,6.746399,13.83065,3.746399,13.38578,1000000.0,2000000000.0,1.6519786586176224,-2.119,-68.9088,-87.4005,-7.355279999999999e-07,2.908471465465781,6.783037,0.00455703,0.01945598,0.06213995,0.6577399,0.4538562,0.2465443,
10,0.001067493,6.4784489999999995,13.82088,3.478449,13.369,1000000.0,2000000000.0,0.6860144602395337,-2.24141,-68.6614,-87.0066,-7.38871e-07,2.842062087119031,6.577882,0.004551951,0.01943503,0.06199574,0.6586233,0.4433782,0.2470252,
11,0.001060478,6.230905,13.82039,3.230905,13.36283,1000000.0,2000000000.0,0.016070761903463904,-2.35812,-68.4367,-86.6906,-7.448339999999999e-07,2.798801508527212,6.404922,0.00452794,0.01936884,0.06177545,0.6579521,0.4364085,0.2467405,
12,0.001051409,6.007814,13.82793,3.007814,13.35804,1000000.0,2000000000.0,-0.4261243904629737,-2.46954,-68.2332,-86.4371,-7.51491e-07,2.7702893280807075,6.254887,0.004491777,0.01927992,0.06147555,0.6562139,0.4317962,0.2460149,
13,0.001041138,5.809704,13.84285,2.809704,13.36322,1000000.0,2000000000.0,-0.7313597125411775,-2.57276,-68.0451,-86.2257,-7.5973e-07,2.7514313929420724,6.127921,0.004448663,0.01916959,0.06116749,0.6540383,0.4286377,0.2450766,
14,0.001030311,5.636122,13.85933,2.636122,13.36455,1000000.0,2000000000.0,-0.9468111768151033,-2.66825,-67.8763,-86.0474,-7.67504e-07,2.7371323039127096,6.016883,0.004402135,0.01905237,0.06083258,0.6516123,0.4262832,0.2440879,
15,0.001019196,5.485036,13.87805,2.485036,13.37185,1000000.0,2000000000.0,-1.1199170011837367,-2.75594,-67.7188,-85.8882,-7.761869999999999e-07,2.7261197689944234,5.921225,0.004354004,0.0189239,0.06051994,0.6492309,0.4244176,0.2431117,
16,0.001008026,5.354444,13.89509,2.354444,13.37247,1000000.0,2000000000.0,-1.2532970172716418,-2.83379,-67.5804,-85.7515,-7.83863e-07,2.7162841083541274,5.838555,0.00430536,0.01879426,0.06019668,0.6468391,0.4228371,0.2421919,
17,0.0009967387,5.2898879999999995,13.9065,2.289888,13.371,1000000.0,2000000000.0,-1.346455576067136,-2.88438,-67.476,-85.6454,-7.91452e-07,2.7086328125415737,5.786272,0.004256409,0.01864118,0.05991632,0.6446838,0.4215427,0.2413007,
18,0.0009856135,5.188751,13.92434,2.188751,13.37636,1000000.0,2000000000.0,-1.4450939975364534,-2.95029,-67.3531,-85.5296,-7.99839e-07,2.7015700754738354,5.721274,0.004207806,0.01850253,0.05962843,0.6424833,0.4204,0.2404735,
19,0.0009746483,5.103082000000001,13.93925,2.103082,13.37377,1000000.0,2000000000.0,-1.5281355182364535,-3.00935,-67.244,-85.4268,-8.070639999999999e-07,2.6943596868143804,5.663284,0.004159884,0.01836588,0.05933456,0.640337,0.4193241,0.2397239,
20,0.000964809,5.083056,13.95724,2.083056,13.37962,1000000.0,2000000000.0,-1.591869146535032,-3.04019,-67.1596,-85.3481,-8.139279999999999e-07,2.6861323863529667,5.628308,0.004112648,0.01824064,0.05908337,0.6384379,0.4183178,0.2390436,
21,0.0009494156,4.992041,14.01014,1.992041,13.40836,1000000.0,2000000000.0,-1.0813080856698178,-3.11375,-67.0354,-85.3475,-8.2758e-07,2.7183761944707845,5.586755,0.004042328,0.01803273,0.05865202,0.632227,0.4222154,0.2358248,
22,0.0009459211,4.990428,13.94178,1.990428,13.33881,1000000.0,2000000000.0,-2.344141976218232,-3.10987,-67.0034,-85.074,-8.23834e-07,2.6392246971102695,5.549418,0.004040869,0.01796766,0.05871385,0.6352402,0.4087859,0.2371547,
23,0.0009328365,4.932856,13.99838,1.932856,13.37375,1000000.0,2000000000.0,-1.8626538484924282,-3.17033,-66.8856,-85.0791,-8.364e-07,2.664959154038081,5.509782,0.003973822,0.01780104,0.05833252,0.6311102,0.4134525,0.2355602,
24,0.0009183598,4.876809,14.03382,1.876809,13.38619,1000000.0,2000000000.0,-1.3970267887008063,-3.22174,-66.7925,-85.0898,-8.48154e-07,2.69217570117046,5.482738,0.003909237,0.01759607,0.05794862,0.6273167,0.4181728,0.2342232,
25,0.0009153248,4.9569209999999995,13.95469,1.956921,13.30789,1000000.0,2000000000.0,-2.7347085460843203,-3.17646,-66.8042,-84.8404,-8.419829999999999e-07,2.610021309581716,5.475607,0.003910595,0.01753285,0.05804347,0.6307033,0.4040225,0.2356765,
26,0.0009023559,4.915904,14.02279,1.915904,13.35088,1000000.0,2000000000.0,-2.0792926808148735,-3.23148,-66.6915,-84.8835,-8.55653e-07,2.6444015353298207,5.445684,0.0038413,0.01736401,0.05765773,0.6261534,0.4102971,0.2339142,
27,0.0008872615,4.9222660000000005,14.0664,1.922266,13.36726,1000000.0,2000000000.0,-1.3930589740017822,-3.26122,-66.6216,-84.9531,-8.679999999999999e-07,2.6832391892761858,5.441567,0.003773001,0.01714646,0.05724846,0.6217787,0.4171111,0.2323966,
28,0.0008795639,4.916175,14.05728,1.916175,13.34289,1000000.0,2000000000.0,-1.673762635009325,-3.27412,-66.5736,-84.8621,-8.712659999999999e-07,2.663806131197752,5.419973,0.003742555,0.01703377,0.0571012,0.621644,0.4141736,0.2326925,
29,0.0008711026,4.962493,14.05229,1.962493,13.32538,1000000.0,2000000000.0,-1.8140896809141793,-3.26802,-66.5416,-84.8069,-8.757440000000001e-07,2.6527277795229973,5.417481,0.003707453,0.01689844,0.05694829,0.6210511,0.412594,0.2326938,
30,0.000872683,4.932237,14.00109,1.932237,13.28379,1000000.0,2000000000.0,-2.6570427758528865,-3.26607,-66.5335,-84.6395,-8.708019999999999e-07,2.60198854566971,5.388738,0.003719135,0.01692257,0.05703291,0.6249381,0.4054169,0.2350421,
31,0.0008575958,4.952631,14.06082,1.952631,13.31146,1000000.0,2000000000.0,-1.7647565784264287,-3.29367,-66.4623,-84.7485,-8.848319999999999e-07,2.6508161511938053,5.391948,0.003647838,0.01670222,0.05661548,0.6198297,0.4138647,0.233131,
32,0.0008494926,5.008857,14.05914,2.008857,13.29153,1000000.0,2000000000.0,-1.880845178097971,-3.2846,-66.4356,-84.7068,-8.882649999999999e-07,2.6406093186783797,5.391224,0.003613873,0.0165815,0.05645141,0.6190504,0.4124028,0.2330952,
33,0.0008398824,5.071593,14.041,2.071593,13.25987,1000000.0,2000000000.0,-2.420970683388063,-3.26933,-66.3927,-84.5717,-8.929729999999999e-07,2.6068348425950902,5.386891,0.003573763,0.01641336,0.05636113,0.6181541,0.4057363,0.2322824,
34,0.0008299692,5.112508,14.0609,2.112508,13.25855,1000000.0,2000000000.0,-2.0647214928769486,-3.27209,-66.3539,-84.6017,-9.00467e-07,2.622201598358646,5.387822,0.003526168,0.01626408,0.05609376,0.6165501,0.4098525,0.2323404,
35,0.000822625,5.125534,14.09571,2.125534,13.27578,1000000.0,2000000000.0,-1.7512623728589105,-3.28666,-66.31,-84.6305,-9.08037e-07,2.639909017594284,5.389436,0.003491839,0.01615939,0.05590431,0.6123731,0.411313,0.2298977,
36,0.0008153659,5.176544,14.09216,2.176544,13.25407,1000000.0,2000000000.0,-1.767759335350867,-3.27863,-66.2898,-84.6106,-9.111069999999999e-07,2.6351718919312037,5.38868,0.003460425,0.01604966,0.05575105,0.6125077,0.4117827,0.2307112,
37,0.0008081576,5.171085,14.08651,2.171085,13.23578,1000000.0,2000000000.0,-1.7950155049227874,-3.29045,-66.2505,-84.5689,-9.16057e-07,2.6314575331705745,5.375433,0.003429241,0.01593008,0.05562053,0.6127728,0.4124034,0.231508,
38,0.0008010454,5.223526,14.08099,2.223526,13.21755,1000000.0,2000000000.0,-1.79799968271098,-3.27778,-66.2334,-84.5504,-9.201059999999999e-07,2.628159451193802,5.379813,0.003398348,0.0158116,0.05549263,0.6130784,0.4131323,0.2323384,
39,0.0007941419,5.274559,14.07449,2.274559,13.19733,1000000.0,2000000000.0,-1.7966026146381253,-3.2651,-66.2184,-84.5326,-9.23568e-07,2.624149584218528,5.383504,0.003368252,0.01570053,0.05533726,0.6133346,0.4139077,0.2332455,
40,0.0007879761,5.295489,14.09904,2.295489,13.20647,1000000.0,2000000000.0,-1.6177486946478226,-3.27227,-66.1853,-84.5446,-9.297679999999999e-07,2.6347369304976356,5.388474,0.003341368,0.01560787,0.05520106,0.6096618,0.4138668,0.2309157,
41,0.0007821228,5.3544339999999995,14.08219,2.354434,13.17827,1000000.0,2000000000.0,-1.7981242787937788,-3.2521,-66.1792,-84.5006,-9.312889999999999e-07,2.620243123007128,5.393463,0.003318138,0.01551283,0.0550717,0.610462,0.4125926,0.2320158,
42,0.0007757868,5.410456,14.07401,2.410456,13.15236,1000000.0,2000000000.0,-1.8757235255706206,-3.24038,-66.1661,-84.4758,-9.33544e-07,2.612658022230371,5.395801,0.003291664,0.01541296,0.05495351,0.6108044,0.4123068,0.2328262,
43,0.0007693559,5.408457,14.06532,2.408457,13.13012,1000000.0,2000000000.0,-1.937209271242672,-3.24891,-66.1336,-84.4324,-9.37552e-07,2.6067137398641735,5.384911,0.003264519,0.01530638,0.05482137,0.6109709,0.4123441,0.2335329,
44,0.0007629391,5.466188,14.06308,2.466188,13.1164,1000000.0,2000000000.0,-1.9763939272384476,-3.23432,-66.1168,-84.4138,-9.41671e-07,2.6025059391921816,5.391596,0.003237256,0.01520177,0.05472001,0.6111592,0.4125011,0.2341894,
45,0.0007566173,5.520697999999999,14.05602,2.520698,13.09665,1000000.0,2000000000.0,-2.0068804397864497,-3.22019,-66.1042,-84.395,-9.45397e-07,2.5984204974677243,5.398785,0.003210461,0.01509251,0.054619,0.6113768,0.4127064,0.234827,
46,0.0007504346,5.573713,14.04775,2.573713,13.07353,1000000.0,2000000000.0,-2.028403656382416,-3.20613,-66.0946,-84.3771,-9.482379999999999e-07,2.593323011211752,5.405219,0.003184208,0.01499161,0.0544726,0.6113699,0.4129017,0.2354772,
47,0.000744397,5.627256,14.04171,2.627256,13.04835,1000000.0,2000000000.0,-2.052441028038686,-3.19388,-66.0849,-84.3651,-9.506189999999999e-07,2.5890342807626445,5.410899,0.003158575,0.01489464,0.0543598,0.6114439,0.4130375,0.2360975,
48,0.0007384415,5.678126,14.03383,2.678126,13.02654,1000000.0,2000000000.0,-2.0803615501321673,-3.18091,-66.0744,-84.347,-9.537769999999999e-07,2.5845299635450467,5.417621,0.003133416,0.01479377,0.05424219,0.6115018,0.4131584,0.2366813,
49,0.0007325918,5.729423000000001,14.03175,2.729423,13.01302,1000000.0,2000000000.0,-2.1144598343641263,-3.16892,-66.058,-84.3301,-9.57879e-07,2.5811542563777237,5.424128,0.003108619,0.01469634,0.05415559,0.6116085,0.4132824,0.2372211,
50,0.0007268259,5.778007000000001,14.02501,2.778007,12.99352,1000000.0,2000000000.0,-2.143642026466864,-3.15985,-66.0434,-84.3103,-9.6164e-07,2.5777171101469314,5.429115,0.003084264,0.01459488,0.0540675,0.6117216,0.4134142,0.2377286,
51,0.0007211703,5.770535000000001,14.01681,2.770535,12.97019,1000000.0,2000000000.0,-2.1784675346875275,-3.17,-66.0141,-84.2736,-9.65248e-07,2.573327626585814,5.4189,0.00306034,0.01450084,0.05393568,0.6115834,0.4135135,0.238225,
52,0.0007155541,5.824201,14.01125,2.824201,12.94466,1000000.0,2000000000.0,-2.191705074285565,-3.15816,-66.0067,-84.2658,-9.675159999999999e-07,2.5699977899291993,5.426226,0.003036541,0.01440897,0.05383332,0.6114401,0.4135599,0.2386357,
53,0.0007099746,5.875244,14.00468,2.875244,12.92344,1000000.0,2000000000.0,-2.205675530848019,-3.14574,-65.9976,-84.252,-9.707240000000001e-07,2.5666531071244396,5.434553,0.003012961,0.01431281,0.05372626,0.6112148,0.413584,0.2389567,
54,0.0007044219,5.925084,13.99902,2.925084,12.90268,1000000.0,2000000000.0,-2.2100355201699386,-3.13422,-65.9879,-84.2396,-9.74046e-07,2.5639119174596208,5.442876,0.002989427,0.01421696,0.05361924,0.6108477,0.4136135,0.2391681,
55,0.0006988928,5.97565,13.99984,2.97565,12.89064,1000000.0,2000000000.0,-2.2145604059256954,-3.12379,-65.9716,-84.2289,-9.784639999999999e-07,2.5625617813661785,5.45113,0.00296588,0.01412319,0.05353889,0.6104107,0.4136338,0.2392533,
56,0.0006934385,6.023896000000001,13.99482,3.023896,12.86853,1000000.0,2000000000.0,-2.204584828932582,-3.11341,-65.9627,-84.2184,-9.81466e-07,2.5599679766274592,5.459289,0.002942614,0.01403129,0.05341132,0.6096624,0.4135604,0.2392516,
57,0.0006879327,6.072978,13.99341,3.072978,12.84433,1000000.0,2000000000.0,-2.1720593413646725,-3.10576,-65.9527,-84.2171,-9.84207e-07,2.5593179696597104,5.466924,0.00291889,0.01394017,0.0533075,0.6087434,0.4135435,0.2390609,
58,0.000682405,6.120318,13.99204,3.120318,12.82545,1000000.0,2000000000.0,-2.137643498233423,-3.10003,-65.9377,-84.2078,-9.88181e-07,2.5589194960653234,5.47362,0.002895016,0.01384406,0.05319886,0.6076604,0.4135055,0.2387173,
59,0.0006768632,6.1118950000000005,13.99161,3.111895,12.8068,1000000.0,2000000000.0,-2.1055632824071893,-3.11386,-65.904,-84.1823,-9.930630000000001e-07,2.5592241521092185,5.465628,0.002870916,0.01374759,0.05308909,0.6063951,0.4134816,0.2382386,
60,0.0006713046,6.1101,13.99724,3.1101,12.79648,1000000.0,2000000000.0,-2.075170931195359,-3.12622,-65.8659,-84.1597,-9.98993e-07,2.5606572917021566,5.459376,0.002846648,0.01365223,0.05300467,0.605093,0.4134379,0.2376615,
61,0.0006658533,6.167197,13.99615,3.167197,12.7751,1000000.0,2000000000.0,-2.0224983422762577,-3.11485,-65.858,-84.1583,-1.0023599999999999e-06,2.5601756283793047,5.471087,0.002822796,0.01355925,0.05287598,0.6035793,0.4132453,0.2370692,
62,0.0006604408,6.224239,13.9969,3.224239,12.75021,1000000.0,2000000000.0,-1.959659016392834,-3.10602,-65.8502,-84.1642,-1.00521e-06,2.56092128450338,5.481947,0.00279905,0.01346829,0.05277287,0.6020836,0.4130916,0.236425,
63,0.0006551355,6.278641,13.99645,3.278641,12.73063,1000000.0,2000000000.0,-1.9120542280790502,-3.09601,-65.8404,-84.1619,-1.0090799999999999e-06,2.561088734420544,5.493448,0.002775893,0.01337461,0.05267084,0.6006603,0.412869,0.2357863,
64,0.0006499388,6.3316230000000004,13.99562,3.331623,12.71074,1000000.0,2000000000.0,-1.8675999269745915,-3.08643,-65.8307,-84.1592,-1.0128699999999999e-06,2.561103560573709,5.504647,0.002753231,0.01328259,0.05257142,0.5992691,0.4126267,0.2351633,
65,0.0006459067,6.386763999999999,14.00608,3.386764,12.70696,1000000.0,2000000000.0,-1.836372120535259,-3.07777,-65.8103,-84.1524,-1.0172e-06,2.559392464671964,5.510588,0.002730907,0.0132136,0.05250951,0.5980302,0.4124538,0.2345287,
66,0.0006342039,6.425757,14.05467,3.425757,12.70033,1000000.0,2000000000.0,-0.8942598883439246,-3.10102,-65.7639,-84.2714,-1.0324399999999999e-06,2.6093570754086337,5.532752,0.002676777,0.01301002,0.0522379,0.5884722,0.4175505,0.228642,
67,0.000631854,6.491921,14.03054,3.491921,12.66464,1000000.0,2000000000.0,-1.3400618023546613,-3.07969,-65.772,-84.2061,-1.0299e-06,2.583467970972847,5.540116,0.002670445,0.01296823,0.05223292,0.5899415,0.4129275,0.229575,
68,0.0006288205,6.489866,14.01244,3.489866,12.6393,1000000.0,2000000000.0,-1.6355928852741783,-3.08207,-65.7539,-84.1396,-1.03116e-06,2.567346845670682,5.532604,0.002659797,0.01291007,0.05221206,0.5908293,0.4102288,0.2302158,
69,0.0006253656,6.48643,13.99818,3.48643,12.61421,1000000.0,2000000000.0,-1.8082696184702343,-3.08684,-65.7356,-84.092,-1.0330299999999999e-06,2.557184970778404,5.525912,0.002646367,0.01284648,0.0521621,0.591201,0.4087443,0.2306784,
70,0.0006215753,6.539848,13.98788,3.539848,12.59073,1000000.0,2000000000.0,-1.8759061499286744,-3.07212,-65.7365,-84.0783,-1.0348099999999999e-06,2.5515187727707627,5.537126,0.002630838,0.01277742,0.05209928,0.5911919,0.4080785,0.2309623,
71,0.0006175772,6.59122,13.98607,3.59122,12.57711,1000000.0,2000000000.0,-1.8938457277555756,-3.06015,-65.7287,-84.0722,-1.0382899999999998e-06,2.54968863466827,5.547899,0.002613959,0.0127064,0.05205081,0.5909561,0.4079264,0.2310782,
72,0.0006134918,6.6391279999999995,13.98088,3.639128,12.55702,1000000.0,2000000000.0,-1.8782606653568052,-3.04983,-65.7244,-84.0692,-1.04129e-06,2.548770659047327,5.558495,0.002596536,0.01263124,0.05198723,0.5905203,0.4079721,0.2310807,
73,0.0006093829,6.685257,13.97474,3.685257,12.53226,1000000.0,2000000000.0,-1.8350426745898218,-3.04067,-65.7228,-84.0701,-1.0434399999999999e-06,2.5479306448236962,5.568445,0.002578723,0.01255943,0.05188692,0.5897198,0.4081133,0.2309888,
74,0.0006051721,6.731644,13.97085,3.731644,12.50318,1000000.0,2000000000.0,-1.762669012937451,-3.03467,-65.721,-84.081,-1.04513e-06,2.549124890176562,5.577787,0.002560261,0.01248712,0.05180563,0.5887866,0.4083995,0.2307545,
75,0.0006009324,6.776022,13.96838,3.776022,12.48331,1000000.0,2000000000.0,-1.69938258644558,-3.0275,-65.714,-84.0837,-1.0486500000000001e-06,2.550615249238317,5.587963,0.002541751,0.01240923,0.05173496,0.5878732,0.4086691,0.2304369,
76,0.0005967634,6.8197,13.96505,3.8197,12.46169,1000000.0,2000000000.0,-1.6396256206041926,-3.02054,-65.7082,-84.086,-1.05179e-06,2.5515641228961425,5.59788,0.002523536,0.01233349,0.0516563,0.5868852,0.4088429,0.230097,
77,0.0005926527,6.8626640000000005,13.96152,3.862664,12.43984,1000000.0,2000000000.0,-1.5838041537809033,-3.01384,-65.7024,-84.0877,-1.05489e-06,2.5523470587219026,5.607644,0.002505604,0.01225866,0.05157918,0.5858868,0.4089569,0.2297394,
78,0.0005886096,6.906369,13.96321,3.906369,12.4266,1000000.0,2000000000.0,-1.5429811471107655,-3.0071,-65.6906,-84.0881,-1.05908e-06,2.5536233813661626,5.617373,0.002488003,0.01218614,0.05152563,0.5849844,0.4090118,0.2293784,
79,0.0005846714,6.948017999999999,13.95942,3.948018,12.40574,1000000.0,2000000000.0,-1.508416548837559,-3.00308,-65.6818,-84.0843,-1.0623499999999999e-06,2.5537965273870222,5.624789,0.00247096,0.0121132,0.05146145,0.584103,0.4089611,0.2290381,
80,0.0005808468,6.932232,13.95286,3.932232,12.37927,1000000.0,2000000000.0,-1.485623566388142,-3.01731,-65.659,-84.0636,-1.06514e-06,2.5528672879078456,5.616471,0.002454303,0.01204549,0.0513679,0.5830576,0.4088481,0.2287221,
81,0.000577031,6.922631,13.94661,3.922631,12.34727,1000000.0,2000000000.0,-1.453483382718595,-3.03174,-65.6398,-84.0523,-1.06702e-06,2.5528160653202248,5.609347,0.002437689,0.01197896,0.05129623,0.5820912,0.4087594,0.2284036,
82,0.0005732351,6.972795,13.94134,3.972795,12.32413,1000000.0,2000000000.0,-1.4191479698086056,-3.02193,-65.6385,-84.0542,-1.06963e-06,2.5524317486659402,5.621498,0.00242129,0.01190892,0.05122851,0.5812191,0.4086421,0.2280932,
83,0.0005695065,7.020856,13.93601,4.020856,12.301,1000000.0,2000000000.0,-1.3835182917653555,-3.01286,-65.637,-84.0561,-1.0722100000000001e-06,2.5521679137194293,5.63313,0.002405171,0.01184004,0.0511619,0.580357,0.4085482,0.2277887,
84,0.0005658375,7.068538,13.93618,4.068538,12.28685,1000000.0,2000000000.0,-1.3573909343396764,-3.00408,-65.6289,-84.057,-1.0759899999999999e-06,2.5526512489749837,5.64448,0.002389326,0.01177333,0.05111706,0.5795879,0.4084679,0.2274882,
85,0.0005622626,7.113421,13.93087,4.113421,12.26481,1000000.0,2000000000.0,-1.3308352042012288,-2.99591,-65.6263,-84.0571,-1.0786899999999999e-06,2.5522544163671625,5.655375,0.002373952,0.01170642,0.05105985,0.5788257,0.4083313,0.227212,
